
**** 05/28/24 17:50:50 ******* PSpice Lite (March 2016) ******* ID# 10813 ****

 ** Profile: "OSCILADOR-bias"  [ C:\Users\jfcmp\Documentos\Git\EE610 Projeto Final\parte03\oscilador-PSpiceFiles\OSCILADOR\bias.sim ]


 ****     CIRCUIT DESCRIPTION


******************************************************************************




** Creating circuit file "bias.cir" 
** WARNING: THIS AUTOMATICALLY GENERATED FILE MAY BE OVERWRITTEN BY SUBSEQUENT SIMULATIONS

*Libraries: 
* Profile Libraries :
* Local Libraries :
.LIB "../../../oscilador-pspicefiles/oscilador.lib" 
* From [PSPICE NETLIST] section of C:\Users\jfcmp\AppData\Roaming\SPB_Data\cdssetup\OrCAD_PSpice\17.2.0\PSpice.ini file:
.lib "nomd.lib" 

*Analysis directives: 
.TRAN  0 20ns 0 1ps 
.OPTIONS ADVCONV
.PROBE64 V(alias(*)) I(alias(*)) W(alias(*)) D(alias(*)) NOISE(alias(*)) 
.INC "..\OSCILADOR.net" 



**** INCLUDING OSCILADOR.net ****
* source OSCILADOR
C_C2         0 N17610  155f  TC=0,0 
M_M8         N17610 N17594 VDD VDD Mbreakp           
M_M7         N17610 N17594 0 0 Mbreakn           
V_V1         VDD 0 7
M_M10         N17594 N18287 0 0 Mbreakn           
M_M9         N17594 N18287 VDD VDD Mbreakp           
C_C3         0 N17594  155f  TC=0,0 
C_C5         0 N18697  155f  TC=0,0 
M_M12         N18697 N18673 VDD VDD Mbreakp           
C_C4         0 N18673  155f  TC=0,0 
M_M14         N18697 N18673 0 0 Mbreakn           
M_M11         N18673 N17610 VDD VDD Mbreakp           
M_M13         N18673 N17610 0 0 Mbreakn           
C_C7         0 N18287  155f  TC=0,0 
M_M18         N18287 N18697 0 0 Mbreakn           
M_M16         N18287 N18697 VDD VDD Mbreakp           

**** RESUMING bias.cir ****
.END

**** 05/28/24 17:50:50 ******* PSpice Lite (March 2016) ******* ID# 10813 ****

 ** Profile: "OSCILADOR-bias"  [ C:\Users\jfcmp\Documentos\Git\EE610 Projeto Final\parte03\oscilador-PSpiceFiles\OSCILADOR\bias.sim ]


 ****     MOSFET MODEL PARAMETERS


******************************************************************************




               Mbreakp         Mbreakn         
               PMOS            NMOS            
       LEVEL    1               1            
           L  350.000000E-09  350.000000E-09 
           W    5.180000E-06    2.590000E-06 
         VTO    -.6              .6          
          KP  250.000000E-06  500.000000E-06 
       GAMMA    0               0            
         PHI     .6              .6          
      LAMBDA    0               0            
          IS   10.000000E-15   10.000000E-15 
          JS    0               0            
          PB     .8              .8          
        PBSW     .8              .8          
          CJ    0               0            
        CJSW    0               0            
        CGSO    0               0            
        CGDO    0               0            
        CGBO    0               0            
         TOX    0               0            
          XJ    0               0            
       UCRIT   10.000000E+03   10.000000E+03 
      DIOMOD    1               1            
         VFB    0               0            
        LETA    0               0            
        WETA    0               0            
          U0    0               0            
        TEMP    0               0            
         VDD    5               5            
       XPART    0               0            


Starting pseudo-transient algorithm.

**** 05/28/24 17:50:50 ******* PSpice Lite (March 2016) ******* ID# 10813 ****

 ** Profile: "OSCILADOR-bias"  [ C:\Users\jfcmp\Documentos\Git\EE610 Projeto Final\parte03\oscilador-PSpiceFiles\OSCILADOR\bias.sim ]


 ****     INITIAL TRANSIENT SOLUTION       TEMPERATURE =   27.000 DEG C


******************************************************************************



 NODE   VOLTAGE     NODE   VOLTAGE     NODE   VOLTAGE     NODE   VOLTAGE


(  VDD)    7.0000  (N17594)    3.5000 (N17610)    3.5000 (N18287)    3.5000     

(N18673)    3.4954 (N18697)    3.5000 




    VOLTAGE SOURCE CURRENTS
    NAME         CURRENT

    V_V1        -7.784E-02

    TOTAL POWER DISSIPATION   5.45E-01  WATTS



          JOB CONCLUDED

**** 05/28/24 17:50:50 ******* PSpice Lite (March 2016) ******* ID# 10813 ****

 ** Profile: "OSCILADOR-bias"  [ C:\Users\jfcmp\Documentos\Git\EE610 Projeto Final\parte03\oscilador-PSpiceFiles\OSCILADOR\bias.sim ]


 ****     JOB STATISTICS SUMMARY


******************************************************************************



  Total job time (using Solver 1)   =        4.95
